
T4B60 000:074 SEGGER J-Link V6.51a (beta) Log File (0000ms, 0060ms total)
T4B60 000:074 DLL Compiled: Aug 23 2019 16:11:09 (0000ms, 0060ms total)
T4B60 000:074 Logging started @ 2019-11-15 07:42 (0000ms, 0060ms total)
T4B60 000:074 JLINK_SetWarnOutHandler(...) (0000ms, 0060ms total)
T4B60 000:074 JLINK_OpenEx(...)
Firmware: J-Link V9 compiled May 17 2019 09:50:41
Hardware: V9.40
S/N: 59406895
Feature(s): RDI, GDB, FlashDL, FlashBP, JFlash
TELNET listener socket opened on port 19021WEBSRV 
Starting webserver (0041ms, 0101ms total)
T4B60 000:074 WEBSRV Webserver running on local port 19080 (0041ms, 0101ms total)
T4B60 000:074   returns O.K. (0041ms, 0101ms total)
T4B60 000:115 JLINK_SetErrorOutHandler(...) (0000ms, 0101ms total)
T4B60 000:115 JLINK_ExecCommand("ProjectFile = "C:\Users\vicru\Desktop\Schuco\FlyingSchuco\HAL_F4\HAL_F4\MDK-ARM\JLinkSettings.ini"", ...). Ref file found at: D:\Install\Keil_v5\ARM\Segger\JLinkDevices.ref (0009ms, 0110ms total)
T4B60 000:115 XML referenced by ref file: C:\Program Files (x86)\SEGGER\JLink\JLinkDevices.xml (0010ms, 0111ms total)
T4B60 000:115 C:\Program Files (x86)\SEGGER\JLink\JLinkDevices.xml evaluated successfully. (0013ms, 0114ms total)
T4B60 000:115   returns 0x00 (0188ms, 0289ms total)
T4B60 000:303 JLINK_ExecCommand("Device = STM32F407ZGTx", ...). Device "STM32F407ZG" selected.  returns 0x00 (0003ms, 0292ms total)
T4B60 000:306 JLINK_ExecCommand("DisableConnectionTimeout", ...).   returns 0x01 (0000ms, 0292ms total)
T4B60 000:306 JLINK_GetHardwareVersion()  returns 0x16F30 (0000ms, 0292ms total)
T4B60 000:306 JLINK_GetDLLVersion()  returns 65101 (0000ms, 0292ms total)
T4B60 000:306 JLINK_GetFirmwareString(...) (0000ms, 0292ms total)
T4B60 000:306 JLINK_GetDLLVersion()  returns 65101 (0000ms, 0292ms total)
T4B60 000:306 JLINK_GetCompileDateTime() (0000ms, 0292ms total)
T4B60 000:306 JLINK_GetFirmwareString(...) (0000ms, 0292ms total)
T4B60 000:306 JLINK_GetHardwareVersion()  returns 0x16F30 (0000ms, 0292ms total)
T4B60 000:306 JLINK_TIF_Select(JLINKARM_TIF_JTAG)  returns 0x00 (0001ms, 0293ms total)
T4B60 000:307 JLINK_SetSpeed(5000) (0000ms, 0293ms total)
T4B60 000:307 JLINK_GetIdData(...) >0x2F8 JTAG>TotalIRLen = 9, IRPrint = 0x0011 >0x30 JTAG> >0x50 JTAG>JTAG chain detection found 2 devices: #0 Id: 0x4BA00477, IRLen: 04, CoreSight JTAG-DP #1 Id: 0x06413041, IRLen: 05, STM32 Boundary Scan >0x40 JTAG> >0x40 JTAG> >0x40 JTAG> >0x30 JTAG> >0x40 JTAG> >0x40 JTAG> >0x40 JTAG> >0x40 JTAG> >0x40 JTAG> >0x40 JTAG> >0x40 JTAG> >0x40 JTAG> >0x40 JTAG> >0x40 JTAG> >0x40 JTAG> >0x40 JTAG> >0x40 JTAG> >0x40 JTAG> >0x40 JTAG> >0x40 JTAG> >0x40 JTAG> >0x40 JTAG>
 >0x40 JTAG> >0x40 JTAG> >0x2F8 JTAG>TotalIRLen = 9, IRPrint = 0x0011 >0x30 JTAG> >0x50 JTAG>JTAG chain detection found 2 devices: #0 Id: 0x4BA00477, IRLen: 04, CoreSight JTAG-DP #1 Id: 0x06413041, IRLen: 05, STM32 Boundary ScanScanning AP map to find all available APs >0x80 JTAG> >0x50 JTAG> >0x40 JTAG> >0x40 JTAG> >0x50 JTAG> >0x40 JTAG>AP[1]: Stopped AP scan as end of AP map has been reachedAP[0]: AHB-AP (IDR: 0x24770011)Iterating through AP map to find AHB-AP to use >0x80 JTAG> >0x50 JTAG>
 >0x50 JTAG> >0x70 JTAG> >0x40 JTAG> >0x30 JTAG> >0x40 JTAG> >0x40 JTAG>AP[0]: Core foundAP[0]: AHB-AP ROM base: 0xE00FF000 >0x40 JTAG> >0x40 JTAG> >0x30 JTAG> >0x40 JTAG> >0x40 JTAG>CPUID register: 0x410FC241. Implementer code: 0x41 (ARM)Found Cortex-M4 r0p1, Little endian. -- Max. mem block: 0x00010F28 -- CPU_ReadMem(4 bytes @ 0xE000EDF0) -- CPU_WriteMem(4 bytes @ 0xE000EDF0) -- CPU_ReadMem(4 bytes @ 0xE0002000)FPUnit: 6 code (BP) slots and 2 literal slots -- CPU_ReadMem(4 bytes @ 0xE000EDFC)
 -- CPU_WriteMem(4 bytes @ 0xE000EDFC) -- CPU_ReadMem(4 bytes @ 0xE0001000) -- CPU_WriteMem(4 bytes @ 0xE0001000) -- CPU_ReadMem(4 bytes @ 0xE000ED88) -- CPU_WriteMem(4 bytes @ 0xE000ED88) -- CPU_ReadMem(4 bytes @ 0xE000ED88) -- CPU_WriteMem(4 bytes @ 0xE000ED88)CoreSight components:ROMTbl[0] @ E00FF000 -- CPU_ReadMem(16 bytes @ 0xE00FF000) -- CPU_ReadMem(16 bytes @ 0xE000EFF0) -- CPU_ReadMem(16 bytes @ 0xE000EFE0)ROMTbl[0][0]: E000E000, CID: B105E00D, PID: 000BB00C SCS-M7
 -- CPU_ReadMem(16 bytes @ 0xE0001FF0) -- CPU_ReadMem(16 bytes @ 0xE0001FE0)ROMTbl[0][1]: E0001000, CID: B105E00D, PID: 003BB002 DWT -- CPU_ReadMem(16 bytes @ 0xE0002FF0) -- CPU_ReadMem(16 bytes @ 0xE0002FE0)ROMTbl[0][2]: E0002000, CID: B105E00D, PID: 002BB003 FPB -- CPU_ReadMem(16 bytes @ 0xE0000FF0) -- CPU_ReadMem(16 bytes @ 0xE0000FE0)ROMTbl[0][3]: E0000000, CID: B105E00D, PID: 003BB001 ITM -- CPU_ReadMem(16 bytes @ 0xE00FF010) -- CPU_ReadMem(16 bytes @ 0xE0040FF0)
 -- CPU_ReadMem(16 bytes @ 0xE0040FE0)ROMTbl[0][4]: E0040000, CID: B105900D, PID: 000BB9A1 TPIU -- CPU_ReadMem(16 bytes @ 0xE0041FF0) -- CPU_ReadMem(16 bytes @ 0xE0041FE0)ROMTbl[0][5]: E0041000, CID: B105900D, PID: 000BB925 ETM ScanLen=9 NumDevices=2 aId[0]=0x4BA00477 aIrRead[0]=0 aScanLen[0]=0 aScanRead[0]=0 (0021ms, 0314ms total)
T4B60 000:328 JLINK_JTAG_GetDeviceID(DeviceIndex = 0)  returns 0x4BA00477 (0000ms, 0314ms total)
T4B60 000:328 JLINK_JTAG_GetDeviceInfo(DeviceIndex = 0)  returns 0x00 (0000ms, 0314ms total)
T4B60 000:328 JLINK_JTAG_GetDeviceID(DeviceIndex = 1)  returns 0x6413041 (0000ms, 0314ms total)
T4B60 000:328 JLINK_JTAG_GetDeviceInfo(DeviceIndex = 1)  returns 0x00 (0000ms, 0314ms total)
T4B60 000:328 JLINK_GetDLLVersion()  returns 65101 (0000ms, 0314ms total)
T4B60 000:328 JLINK_CORE_GetFound()  returns 0xE0000FF (0000ms, 0314ms total)
T4B60 000:328 JLINK_GetDebugInfo(0x100 = JLINKARM_ROM_TABLE_ADDR_INDEX) -- Value=0xE00FF000  returns 0x00 (0000ms, 0314ms total)
T4B60 000:328 JLINK_GetDebugInfo(0x100 = JLINKARM_ROM_TABLE_ADDR_INDEX) -- Value=0xE00FF000  returns 0x00 (0000ms, 0314ms total)
T4B60 000:328 JLINK_GetDebugInfo(0x101 = JLINKARM_DEBUG_INFO_ETM_ADDR_INDEX) -- Value=0xE0041000  returns 0x00 (0000ms, 0314ms total)
T4B60 000:328 JLINK_GetDebugInfo(0x102 = JLINKARM_DEBUG_INFO_MTB_ADDR_INDEX) -- Value=0x00000000  returns 0x00 (0000ms, 0314ms total)
T4B60 000:328 JLINK_GetDebugInfo(0x103 = JLINKARM_DEBUG_INFO_TPIU_ADDR_INDEX) -- Value=0xE0040000  returns 0x00 (0000ms, 0314ms total)
T4B60 000:328 JLINK_GetDebugInfo(0x104 = JLINKARM_DEBUG_INFO_ITM_ADDR_INDEX) -- Value=0xE0000000  returns 0x00 (0000ms, 0314ms total)
T4B60 000:328 JLINK_GetDebugInfo(0x105 = JLINKARM_DEBUG_INFO_DWT_ADDR_INDEX) -- Value=0xE0001000  returns 0x00 (0000ms, 0314ms total)
T4B60 000:328 JLINK_GetDebugInfo(0x106 = JLINKARM_DEBUG_INFO_FPB_ADDR_INDEX) -- Value=0xE0002000  returns 0x00 (0000ms, 0314ms total)
T4B60 000:328 JLINK_GetDebugInfo(0x107 = JLINKARM_DEBUG_INFO_NVIC_ADDR_INDEX) -- Value=0xE000E000  returns 0x00 (0000ms, 0314ms total)
T4B60 000:328 JLINK_GetDebugInfo(0x10C = JLINKARM_DEBUG_INFO_DBG_ADDR_INDEX) -- Value=0xE000EDF0  returns 0x00 (0000ms, 0314ms total)
T4B60 000:328 JLINK_ReadMemU32(0xE000EF40, 0x0001 Items, ...) -- CPU_ReadMem(4 bytes @ 0xE000EF40) - Data: 21 00 11 10  returns 1 (0001ms, 0315ms total)
T4B60 000:329 JLINK_ReadMemU32(0xE000EF44, 0x0001 Items, ...) -- CPU_ReadMem(4 bytes @ 0xE000EF44) - Data: 11 00 00 11  returns 1 (0000ms, 0315ms total)
T4B60 000:329 JLINK_ReadMemU32(0xE000ED00, 0x0001 Items, ...) -- CPU_ReadMem(4 bytes @ 0xE000ED00) - Data: 41 C2 0F 41  returns 1 (0000ms, 0315ms total)
T4B60 000:329 JLINK_SetResetType(JLINKARM_CM3_RESET_TYPE_NORMAL)  returns JLINKARM_CM3_RESET_TYPE_NORMAL (0000ms, 0315ms total)
T4B60 000:329 JLINK_Reset() -- CPU is running -- CPU_WriteMem(4 bytes @ 0xE000EDF0) -- CPU is running -- CPU_WriteMem(4 bytes @ 0xE000EDFC)Reset: Halt core after reset via DEMCR.VC_CORERESET.Reset: Reset device via AIRCR.SYSRESETREQ. -- CPU is running -- CPU_WriteMem(4 bytes @ 0xE000ED0C) -- CPU_ReadMem(4 bytes @ 0xE000EDF0) -- CPU_ReadMem(4 bytes @ 0xE000EDF0) -- CPU is running -- CPU_WriteMem(4 bytes @ 0xE000EDF0) -- CPU is running -- CPU_WriteMem(4 bytes @ 0xE000EDFC)
 -- CPU_ReadMem(4 bytes @ 0xE000EDF0) -- CPU_WriteMem(4 bytes @ 0xE000EDFC) -- CPU_WriteMem(4 bytes @ 0xE0001028) -- CPU_WriteMem(4 bytes @ 0xE0001038) -- CPU_WriteMem(4 bytes @ 0xE0001048) -- CPU_WriteMem(4 bytes @ 0xE0001058) -- CPU_WriteMem(4 bytes @ 0xE0002000) -- CPU_ReadMem(4 bytes @ 0xE000EDFC) -- CPU_ReadMem(4 bytes @ 0xE0001000) (0064ms, 0379ms total)
T4B60 000:393 JLINK_ReadReg(R15 (PC))  returns 0x0800019C (0000ms, 0379ms total)
T4B60 000:393 JLINK_ReadReg(XPSR)  returns 0x01000000 (0000ms, 0379ms total)
T4B60 000:393 JLINK_Halt()  returns 0x00 (0000ms, 0379ms total)
T4B60 000:393 JLINK_IsHalted()  returns TRUE (0000ms, 0379ms total)
T4B60 000:393 JLINK_ReadMemU32(0xE000EDF0, 0x0001 Items, ...) -- CPU_ReadMem(4 bytes @ 0xE000EDF0) - Data: 03 00 03 00  returns 1 (0000ms, 0379ms total)
T4B60 000:393 JLINK_WriteU32(0xE000EDF0, 0xA05F0003) -- CPU_WriteMem(4 bytes @ 0xE000EDF0)  returns 0 (0001ms, 0380ms total)
T4B60 000:394 JLINK_WriteU32(0xE000EDFC, 0x01000000) -- CPU_WriteMem(4 bytes @ 0xE000EDFC)  returns 0 (0000ms, 0380ms total)
T4B60 000:394 JLINK_GetHWStatus(...)  returns 0x00 (0000ms, 0380ms total)
T4B60 000:394 JLINK_GetNumBPUnits(Type = 0xFFFFFF00)  returns 0x06 (0000ms, 0380ms total)
T4B60 000:394 JLINK_GetNumBPUnits(Type = 0xF0)  returns 0x2000 (0000ms, 0380ms total)
T4B60 000:394 JLINK_GetNumWPUnits()  returns 0x04 (0000ms, 0380ms total)
T4B60 000:394 JLINK_GetSpeed()  returns 0x1388 (0000ms, 0380ms total)
T4B60 000:394 JLINK_ReadMemU32(0xE000E004, 0x0001 Items, ...) -- CPU_ReadMem(4 bytes @ 0xE000E004) - Data: 02 00 00 00  returns 1 (0001ms, 0381ms total)
T4B60 000:395 JLINK_ReadMemU32(0xE000E004, 0x0001 Items, ...) -- CPU_ReadMem(4 bytes @ 0xE000E004) - Data: 02 00 00 00  returns 1 (0000ms, 0381ms total)
T4B60 000:395 JLINK_WriteMem(0xE0001000, 0x001C Bytes, ...) - Data: 01 00 00 00 00 00 00 00 00 00 00 00 00 00 00 00 ... -- CPU_WriteMem(28 bytes @ 0xE0001000)  returns 0x1C (0001ms, 0382ms total)
T4B60 000:396 JLINK_ReadMem (0xE0001000, 0x001C Bytes, ...) -- CPU_ReadMem(28 bytes @ 0xE0001000) - Data: 01 00 00 40 00 00 00 00 00 00 00 00 00 00 00 00 ...  returns 0x00 (0000ms, 0382ms total)
T4B60 000:396 JLINK_ReadReg(R15 (PC))  returns 0x0800019C (0000ms, 0382ms total)
T4B60 000:396 JLINK_ReadReg(XPSR)  returns 0x01000000 (0000ms, 0382ms total)
T4B60 000:494 JLINK_SetResetType(JLINKARM_CM3_RESET_TYPE_NORMAL)  returns JLINKARM_CM3_RESET_TYPE_NORMAL (0000ms, 0382ms total)
T4B60 000:494 JLINK_Reset() -- CPU_WriteMem(4 bytes @ 0xE000EDF0) -- CPU_WriteMem(4 bytes @ 0xE000EDFC)Reset: Halt core after reset via DEMCR.VC_CORERESET.Reset: Reset device via AIRCR.SYSRESETREQ. -- CPU_WriteMem(4 bytes @ 0xE000ED0C) -- CPU_ReadMem(4 bytes @ 0xE000EDF0) -- CPU_ReadMem(4 bytes @ 0xE000EDF0) -- CPU_WriteMem(4 bytes @ 0xE000EDF0) -- CPU_WriteMem(4 bytes @ 0xE000EDFC) -- CPU_ReadMem(4 bytes @ 0xE000EDF0) -- CPU_WriteMem(4 bytes @ 0xE000EDFC) -- CPU_WriteMem(4 bytes @ 0xE0001028)
 -- CPU_WriteMem(4 bytes @ 0xE0001038) -- CPU_WriteMem(4 bytes @ 0xE0001048) -- CPU_WriteMem(4 bytes @ 0xE0001058) -- CPU_WriteMem(4 bytes @ 0xE0002000) -- CPU_ReadMem(4 bytes @ 0xE000EDFC) -- CPU_ReadMem(4 bytes @ 0xE0001000) (0065ms, 0447ms total)
T4B60 000:559 JLINK_ReadReg(R15 (PC))  returns 0x0800019C (0000ms, 0447ms total)
T4B60 000:559 JLINK_ReadReg(XPSR)  returns 0x01000000 (0000ms, 0447ms total)
T4B60 000:559 JLINK_ReadMem (0x08000188, 0x003C Bytes, ...) -- CPU_ReadMem(128 bytes @ 0x08000180) -- Updating C cache (128 bytes @ 0x08000180) -- Read from C cache (60 bytes @ 0x08000188) - Data: DF F8 0C D0 00 F0 14 FA 00 48 00 47 71 19 00 08 ...  returns 0x00 (0002ms, 0449ms total)
T487C 002:202 JLINK_SetBPEx(Addr = 0x08001970, Type = 0xFFFFFFF2)  returns 0x00000001 (0001ms, 0450ms total)
T487C 002:203 JLINK_SetBPEx(Addr = 0x08001A14, Type = 0xFFFFFFF2)  returns 0x00000002 (0000ms, 0450ms total)
T487C 002:203 JLINK_SetBPEx(Addr = 0x08001A0C, Type = 0xFFFFFFF2)  returns 0x00000003 (0000ms, 0450ms total)
T487C 002:203 JLINK_Go() -- CPU_ReadMem(4 bytes @ 0xE0001000) -- CPU_WriteMem(4 bytes @ 0xE0002008) -- CPU_WriteMem(4 bytes @ 0xE000200C) -- CPU_WriteMem(4 bytes @ 0xE0002010) -- CPU_WriteMem(4 bytes @ 0xE0002014) -- CPU_WriteMem(4 bytes @ 0xE0002018) -- CPU_WriteMem(4 bytes @ 0xE000201C) -- CPU_WriteMem(4 bytes @ 0xE0001004) (0002ms, 0452ms total)
T487C 002:306 JLINK_IsHalted()  returns TRUE (0002ms, 0454ms total)
T487C 002:308 JLINK_Halt()  returns 0x00 (0000ms, 0452ms total)
T487C 002:308 JLINK_IsHalted()  returns TRUE (0000ms, 0452ms total)
T487C 002:308 JLINK_IsHalted()  returns TRUE (0000ms, 0452ms total)
T487C 002:308 JLINK_IsHalted()  returns TRUE (0000ms, 0452ms total)
T487C 002:308 JLINK_ReadReg(R15 (PC))  returns 0x08001970 (0000ms, 0452ms total)
T487C 002:308 JLINK_ReadReg(XPSR)  returns 0x61000000 (0000ms, 0452ms total)
T487C 002:308 JLINK_ClrBPEx(BPHandle = 0x00000001)  returns 0x00 (0000ms, 0452ms total)
T487C 002:308 JLINK_ClrBPEx(BPHandle = 0x00000002)  returns 0x00 (0000ms, 0452ms total)
T487C 002:308 JLINK_ClrBPEx(BPHandle = 0x00000003)  returns 0x00 (0000ms, 0452ms total)
T487C 002:308 JLINK_ReadMemU32(0xE000ED30, 0x0001 Items, ...) -- CPU_ReadMem(4 bytes @ 0xE000ED30) - Data: 02 00 00 00  returns 1 (0000ms, 0452ms total)
T487C 002:308 JLINK_ReadMemU32(0xE0001028, 0x0001 Items, ...) -- CPU_ReadMem(4 bytes @ 0xE0001028) - Data: 00 00 00 00  returns 1 (0001ms, 0453ms total)
T487C 002:309 JLINK_ReadMemU32(0xE0001038, 0x0001 Items, ...) -- CPU_ReadMem(4 bytes @ 0xE0001038) - Data: 00 02 00 00  returns 1 (0000ms, 0453ms total)
T487C 002:309 JLINK_ReadMemU32(0xE0001048, 0x0001 Items, ...) -- CPU_ReadMem(4 bytes @ 0xE0001048) - Data: 00 00 00 00  returns 1 (0000ms, 0453ms total)
T487C 002:309 JLINK_ReadMemU32(0xE0001058, 0x0001 Items, ...) -- CPU_ReadMem(4 bytes @ 0xE0001058) - Data: 00 00 00 00  returns 1 (0001ms, 0454ms total)
T487C 002:310 JLINK_ReadReg(R0)  returns 0x08001971 (0000ms, 0454ms total)
T487C 002:310 JLINK_ReadReg(R1)  returns 0x200006E0 (0000ms, 0454ms total)
T487C 002:310 JLINK_ReadReg(R2)  returns 0x00000000 (0000ms, 0454ms total)
T487C 002:310 JLINK_ReadReg(R3)  returns 0x08001711 (0000ms, 0454ms total)
T487C 002:310 JLINK_ReadReg(R4)  returns 0x08001B34 (0000ms, 0454ms total)
T487C 002:310 JLINK_ReadReg(R5)  returns 0x08001B34 (0000ms, 0454ms total)
T487C 002:310 JLINK_ReadReg(R6)  returns 0x00000000 (0000ms, 0454ms total)
T487C 002:310 JLINK_ReadReg(R7)  returns 0x00000000 (0000ms, 0454ms total)
T487C 002:310 JLINK_ReadReg(R8)  returns 0x00000000 (0000ms, 0454ms total)
T487C 002:310 JLINK_ReadReg(R9)  returns 0x00000000 (0000ms, 0454ms total)
T487C 002:310 JLINK_ReadReg(R10)  returns 0x00000000 (0000ms, 0454ms total)
T487C 002:310 JLINK_ReadReg(R11)  returns 0x00000000 (0000ms, 0454ms total)
T487C 002:310 JLINK_ReadReg(R12)  returns 0x00000000 (0000ms, 0454ms total)
T487C 002:310 JLINK_ReadReg(R13 (SP))  returns 0x200006E0 (0000ms, 0454ms total)
T487C 002:310 JLINK_ReadReg(R14)  returns 0x080005D5 (0000ms, 0454ms total)
T487C 002:310 JLINK_ReadReg(R15 (PC))  returns 0x08001970 (0000ms, 0454ms total)
T487C 002:310 JLINK_ReadReg(XPSR)  returns 0x61000000 (0000ms, 0454ms total)
T487C 002:310 JLINK_ReadReg(MSP)  returns 0x200006E0 (0000ms, 0454ms total)
T487C 002:310 JLINK_ReadReg(PSP)  returns 0x00000000 (0000ms, 0454ms total)
T487C 002:310 JLINK_ReadReg(CFBP)  returns 0x00000000 (0000ms, 0454ms total)
T487C 002:310 JLINK_ReadReg(FPSCR)  returns 0x00000000 (0003ms, 0457ms total)
T487C 002:313 JLINK_ReadReg(FPS0)  returns 0x00000000 (0000ms, 0457ms total)
T487C 002:313 JLINK_ReadReg(FPS1)  returns 0x00000000 (0000ms, 0457ms total)
T487C 002:313 JLINK_ReadReg(FPS2)  returns 0x00000000 (0000ms, 0457ms total)
T487C 002:313 JLINK_ReadReg(FPS3)  returns 0x00000000 (0000ms, 0457ms total)
T487C 002:313 JLINK_ReadReg(FPS4)  returns 0x00000000 (0000ms, 0457ms total)
T487C 002:313 JLINK_ReadReg(FPS5)  returns 0x00000000 (0000ms, 0457ms total)
T487C 002:313 JLINK_ReadReg(FPS6)  returns 0x00000000 (0000ms, 0457ms total)
T487C 002:313 JLINK_ReadReg(FPS7)  returns 0x00000000 (0000ms, 0457ms total)
T487C 002:313 JLINK_ReadReg(FPS8)  returns 0x00000000 (0000ms, 0457ms total)
T487C 002:313 JLINK_ReadReg(FPS9)  returns 0x00000000 (0000ms, 0457ms total)
T487C 002:313 JLINK_ReadReg(FPS10)  returns 0x00000000 (0000ms, 0457ms total)
T487C 002:313 JLINK_ReadReg(FPS11)  returns 0x00000000 (0000ms, 0457ms total)
T487C 002:313 JLINK_ReadReg(FPS12)  returns 0x00000000 (0000ms, 0457ms total)
T487C 002:313 JLINK_ReadReg(FPS13)  returns 0x00000000 (0000ms, 0457ms total)
T487C 002:313 JLINK_ReadReg(FPS14)  returns 0x00000000 (0000ms, 0457ms total)
T487C 002:313 JLINK_ReadReg(FPS15)  returns 0x00000000 (0000ms, 0457ms total)
T487C 002:313 JLINK_ReadReg(FPS16)  returns 0x00000000 (0000ms, 0457ms total)
T487C 002:313 JLINK_ReadReg(FPS17)  returns 0x00000000 (0000ms, 0457ms total)
T487C 002:313 JLINK_ReadReg(FPS18)  returns 0x00000000 (0001ms, 0458ms total)
T487C 002:314 JLINK_ReadReg(FPS19)  returns 0x00000000 (0000ms, 0458ms total)
T487C 002:314 JLINK_ReadReg(FPS20)  returns 0x00000000 (0000ms, 0458ms total)
T487C 002:314 JLINK_ReadReg(FPS21)  returns 0x00000000 (0000ms, 0458ms total)
T487C 002:314 JLINK_ReadReg(FPS22)  returns 0x00000000 (0000ms, 0458ms total)
T487C 002:314 JLINK_ReadReg(FPS23)  returns 0x00000000 (0000ms, 0458ms total)
T487C 002:314 JLINK_ReadReg(FPS24)  returns 0x00000000 (0000ms, 0458ms total)
T487C 002:314 JLINK_ReadReg(FPS25)  returns 0x00000000 (0000ms, 0458ms total)
T487C 002:314 JLINK_ReadReg(FPS26)  returns 0x00000000 (0000ms, 0458ms total)
T487C 002:314 JLINK_ReadReg(FPS27)  returns 0x00000000 (0000ms, 0458ms total)
T487C 002:314 JLINK_ReadReg(FPS28)  returns 0x00000000 (0000ms, 0458ms total)
T487C 002:314 JLINK_ReadReg(FPS29)  returns 0x00000000 (0000ms, 0458ms total)
T487C 002:314 JLINK_ReadReg(FPS30)  returns 0x00000000 (0000ms, 0458ms total)
T487C 002:314 JLINK_ReadReg(FPS31)  returns 0x00000000 (0000ms, 0458ms total)
T4B60 002:315 JLINK_ReadMem (0x200006CC, 0x000F Bytes, ...) -- CPU_ReadMem(64 bytes @ 0x200006C0) -- Updating C cache (64 bytes @ 0x200006C0) -- Read from C cache (15 bytes @ 0x200006CC) - Data: 00 00 00 00 00 00 00 00 00 00 00 00 00 00 00  returns 0x00 (0000ms, 0458ms total)
T4B60 002:315 JLINK_ReadMem (0x00000000, 0x0004 Bytes, ...) -- CPU_ReadMem(4 bytes @ 0x40023844) -- CPU_ReadMem(64 bytes @ 0x08000000) -- Updating C cache (64 bytes @ 0x08000000) -- Read from C cache (4 bytes @ 0x08000000) - Data: E0 06 00 20  returns 0x00 (0001ms, 0459ms total)
T4B60 002:323 JLINK_ReadMemU32(0xE0001004, 0x0001 Items, ...) -- CPU_ReadMem(4 bytes @ 0xE0001004) - Data: DC 0A 00 00  returns 1 (0000ms, 0459ms total)
T4B60 002:330 JLINK_ReadMem (0x08001966, 0x0002 Bytes, ...) -- CPU_ReadMem(64 bytes @ 0x08001940) -- Updating C cache (64 bytes @ 0x08001940) -- Read from C cache (2 bytes @ 0x08001966) - Data: 28 46  returns 0x00 (0001ms, 0460ms total)
T4B60 002:331 JLINK_ReadMem (0x08001968, 0x003C Bytes, ...) -- CPU_ReadMem(64 bytes @ 0x08001980) -- Updating C cache (64 bytes @ 0x08001980) -- Read from C cache (60 bytes @ 0x08001968) - Data: BD E8 70 40 FF F7 A6 BA 86 B0 FE F7 51 FF 3B 48 ...  returns 0x00 (0001ms, 0461ms total)
T487C 005:705 JLINK_Step() -- Read from C cache (2 bytes @ 0x08001970) -- CPU_ReadMem(4 bytes @ 0xE000ED18) -- CPU_WriteMem(4 bytes @ 0xE000ED18) -- CPU_ReadMem(4 bytes @ 0xE000ED18) -- CPU_WriteMem(4 bytes @ 0xE000ED18) -- Simulated  returns 0x00 (0001ms, 0462ms total)
T487C 005:706 JLINK_ReadReg(R15 (PC))  returns 0x08001972 (0000ms, 0462ms total)
T487C 005:706 JLINK_ReadReg(XPSR)  returns 0x61000000 (0000ms, 0462ms total)
T487C 005:706 JLINK_ReadReg(R0)  returns 0x08001971 (0000ms, 0462ms total)
T487C 005:706 JLINK_ReadReg(R1)  returns 0x200006E0 (0000ms, 0462ms total)
T487C 005:706 JLINK_ReadReg(R2)  returns 0x00000000 (0000ms, 0462ms total)
T487C 005:706 JLINK_ReadReg(R3)  returns 0x08001711 (0000ms, 0462ms total)
T487C 005:706 JLINK_ReadReg(R4)  returns 0x08001B34 (0000ms, 0462ms total)
T487C 005:706 JLINK_ReadReg(R5)  returns 0x08001B34 (0001ms, 0463ms total)
T487C 005:707 JLINK_ReadReg(R6)  returns 0x00000000 (0000ms, 0463ms total)
T487C 005:707 JLINK_ReadReg(R7)  returns 0x00000000 (0000ms, 0463ms total)
T487C 005:707 JLINK_ReadReg(R8)  returns 0x00000000 (0000ms, 0463ms total)
T487C 005:707 JLINK_ReadReg(R9)  returns 0x00000000 (0000ms, 0463ms total)
T487C 005:707 JLINK_ReadReg(R10)  returns 0x00000000 (0000ms, 0463ms total)
T487C 005:707 JLINK_ReadReg(R11)  returns 0x00000000 (0000ms, 0463ms total)
T487C 005:707 JLINK_ReadReg(R12)  returns 0x00000000 (0000ms, 0463ms total)
T487C 005:707 JLINK_ReadReg(R13 (SP))  returns 0x200006C8 (0000ms, 0463ms total)
T487C 005:707 JLINK_ReadReg(R14)  returns 0x080005D5 (0000ms, 0463ms total)
T487C 005:707 JLINK_ReadReg(R15 (PC))  returns 0x08001972 (0000ms, 0463ms total)
T487C 005:707 JLINK_ReadReg(XPSR)  returns 0x61000000 (0000ms, 0463ms total)
T487C 005:707 JLINK_ReadReg(MSP)  returns 0x200006C8 (0000ms, 0463ms total)
T487C 005:707 JLINK_ReadReg(PSP)  returns 0x00000000 (0000ms, 0463ms total)
T487C 005:707 JLINK_ReadReg(CFBP)  returns 0x00000000 (0000ms, 0463ms total)
T487C 005:707 JLINK_ReadReg(FPSCR)  returns 0x00000000 (0000ms, 0463ms total)
T487C 005:707 JLINK_ReadReg(FPS0)  returns 0x00000000 (0000ms, 0463ms total)
T487C 005:707 JLINK_ReadReg(FPS1)  returns 0x00000000 (0000ms, 0463ms total)
T487C 005:707 JLINK_ReadReg(FPS2)  returns 0x00000000 (0000ms, 0463ms total)
T487C 005:707 JLINK_ReadReg(FPS3)  returns 0x00000000 (0000ms, 0463ms total)
T487C 005:707 JLINK_ReadReg(FPS4)  returns 0x00000000 (0000ms, 0463ms total)
T487C 005:707 JLINK_ReadReg(FPS5)  returns 0x00000000 (0000ms, 0463ms total)
T487C 005:707 JLINK_ReadReg(FPS6)  returns 0x00000000 (0000ms, 0463ms total)
T487C 005:707 JLINK_ReadReg(FPS7)  returns 0x00000000 (0000ms, 0463ms total)
T487C 005:707 JLINK_ReadReg(FPS8)  returns 0x00000000 (0000ms, 0463ms total)
T487C 005:707 JLINK_ReadReg(FPS9)  returns 0x00000000 (0000ms, 0463ms total)
T487C 005:707 JLINK_ReadReg(FPS10)  returns 0x00000000 (0000ms, 0463ms total)
T487C 005:707 JLINK_ReadReg(FPS11)  returns 0x00000000 (0000ms, 0463ms total)
T487C 005:707 JLINK_ReadReg(FPS12)  returns 0x00000000 (0000ms, 0463ms total)
T487C 005:707 JLINK_ReadReg(FPS13)  returns 0x00000000 (0000ms, 0463ms total)
T487C 005:707 JLINK_ReadReg(FPS14)  returns 0x00000000 (0000ms, 0463ms total)
T487C 005:707 JLINK_ReadReg(FPS15)  returns 0x00000000 (0000ms, 0463ms total)
T487C 005:707 JLINK_ReadReg(FPS16)  returns 0x00000000 (0000ms, 0463ms total)
T487C 005:707 JLINK_ReadReg(FPS17)  returns 0x00000000 (0000ms, 0463ms total)
T487C 005:707 JLINK_ReadReg(FPS18)  returns 0x00000000 (0000ms, 0463ms total)
T487C 005:707 JLINK_ReadReg(FPS19)  returns 0x00000000 (0000ms, 0463ms total)
T487C 005:707 JLINK_ReadReg(FPS20)  returns 0x00000000 (0001ms, 0464ms total)
T487C 005:708 JLINK_ReadReg(FPS21)  returns 0x00000000 (0000ms, 0464ms total)
T487C 005:708 JLINK_ReadReg(FPS22)  returns 0x00000000 (0000ms, 0464ms total)
T487C 005:708 JLINK_ReadReg(FPS23)  returns 0x00000000 (0000ms, 0464ms total)
T487C 005:708 JLINK_ReadReg(FPS24)  returns 0x00000000 (0000ms, 0464ms total)
T487C 005:708 JLINK_ReadReg(FPS25)  returns 0x00000000 (0000ms, 0464ms total)
T487C 005:708 JLINK_ReadReg(FPS26)  returns 0x00000000 (0000ms, 0464ms total)
T487C 005:708 JLINK_ReadReg(FPS27)  returns 0x00000000 (0000ms, 0464ms total)
T487C 005:708 JLINK_ReadReg(FPS28)  returns 0x00000000 (0000ms, 0464ms total)
T487C 005:708 JLINK_ReadReg(FPS29)  returns 0x00000000 (0000ms, 0464ms total)
T487C 005:708 JLINK_ReadReg(FPS30)  returns 0x00000000 (0000ms, 0464ms total)
T487C 005:708 JLINK_ReadReg(FPS31)  returns 0x00000000 (0000ms, 0464ms total)
T4B60 005:708 JLINK_ReadMem (0x200006CC, 0x000F Bytes, ...) -- Read from C cache (15 bytes @ 0x200006CC) - Data: 00 00 00 00 00 00 00 00 00 00 00 00 00 00 00  returns 0x00 (0000ms, 0464ms total)
T4B60 005:708 JLINK_ReadMem (0x00000000, 0x0004 Bytes, ...) -- Read from C cache (4 bytes @ 0x08000000) - Data: E0 06 00 20  returns 0x00 (0000ms, 0464ms total)
T4B60 005:708 JLINK_ReadMemU32(0xE0001004, 0x0001 Items, ...) - Data: DD 0A 00 00  returns 1 (0000ms, 0464ms total)
T4B60 005:708 JLINK_ReadMem (0x08001970, 0x003C Bytes, ...) -- Read from C cache (60 bytes @ 0x08001970) - Data: 86 B0 FE F7 51 FF 3B 48 39 4D 02 23 02 46 01 21 ...  returns 0x00 (0001ms, 0465ms total)
T487C 006:314 JLINK_SetBPEx(Addr = 0x08001976, Type = 0xFFFFFFF2)  returns 0x00000004 (0000ms, 0465ms total)
T487C 006:314 JLINK_SetBPEx(Addr = 0x08001A14, Type = 0xFFFFFFF2)  returns 0x00000005 (0000ms, 0465ms total)
T487C 006:314 JLINK_SetBPEx(Addr = 0x08001A0C, Type = 0xFFFFFFF2)  returns 0x00000006 (0000ms, 0465ms total)
T487C 006:314 JLINK_Go() -- CPU_ReadMem(4 bytes @ 0xE0001000) -- CPU_WriteMem(4 bytes @ 0xE0002008) -- CPU_WriteMem(4 bytes @ 0xE0001004) (0002ms, 0467ms total)
T487C 006:416 JLINK_IsHalted()  returns TRUE (0001ms, 0468ms total)
T487C 006:417 JLINK_Halt()  returns 0x00 (0000ms, 0467ms total)
T487C 006:417 JLINK_IsHalted()  returns TRUE (0001ms, 0468ms total)
T487C 006:418 JLINK_IsHalted()  returns TRUE (0000ms, 0467ms total)
T487C 006:418 JLINK_IsHalted()  returns TRUE (0000ms, 0467ms total)
T487C 006:418 JLINK_ReadReg(R15 (PC))  returns 0x08001976 (0000ms, 0467ms total)
T487C 006:418 JLINK_ReadReg(XPSR)  returns 0x61000000 (0000ms, 0467ms total)
T487C 006:418 JLINK_ClrBPEx(BPHandle = 0x00000004)  returns 0x00 (0000ms, 0467ms total)
T487C 006:418 JLINK_ClrBPEx(BPHandle = 0x00000005)  returns 0x00 (0000ms, 0467ms total)
T487C 006:418 JLINK_ClrBPEx(BPHandle = 0x00000006)  returns 0x00 (0000ms, 0467ms total)
T487C 006:418 JLINK_ReadMemU32(0xE000ED30, 0x0001 Items, ...) -- CPU_ReadMem(4 bytes @ 0xE000ED30) - Data: 02 00 00 00  returns 1 (0000ms, 0467ms total)
T487C 006:418 JLINK_ReadMemU32(0xE0001028, 0x0001 Items, ...) -- CPU_ReadMem(4 bytes @ 0xE0001028) - Data: 00 00 00 00  returns 1 (0001ms, 0468ms total)
T487C 006:419 JLINK_ReadMemU32(0xE0001038, 0x0001 Items, ...) -- CPU_ReadMem(4 bytes @ 0xE0001038) - Data: 00 02 00 00  returns 1 (0000ms, 0468ms total)
T487C 006:419 JLINK_ReadMemU32(0xE0001048, 0x0001 Items, ...) -- CPU_ReadMem(4 bytes @ 0xE0001048) - Data: 00 00 00 00  returns 1 (0000ms, 0468ms total)
T487C 006:419 JLINK_ReadMemU32(0xE0001058, 0x0001 Items, ...) -- CPU_ReadMem(4 bytes @ 0xE0001058) - Data: 00 00 00 00  returns 1 (0001ms, 0469ms total)
T487C 006:420 JLINK_Step() -- CPU_ReadMem(64 bytes @ 0x08001940) -- Updating C cache (64 bytes @ 0x08001940) -- Read from C cache (2 bytes @ 0x08001976) -- CPU_ReadMem(4 bytes @ 0xE0001004) -- CPU_ReadMem(64 bytes @ 0x08001A40) -- Updating C cache (64 bytes @ 0x08001A40) -- Read from C cache (4 bytes @ 0x08001A64) -- Simulated  returns 0x00 (0002ms, 0471ms total)
T487C 006:422 JLINK_ReadReg(R15 (PC))  returns 0x08001978 (0000ms, 0471ms total)
T487C 006:422 JLINK_ReadReg(XPSR)  returns 0x61000000 (0000ms, 0471ms total)
T487C 006:422 JLINK_Step() -- Read from C cache (2 bytes @ 0x08001978) -- Read from C cache (4 bytes @ 0x08001A60) -- Simulated  returns 0x00 (0000ms, 0471ms total)
T487C 006:422 JLINK_ReadReg(R15 (PC))  returns 0x0800197A (0000ms, 0471ms total)
T487C 006:422 JLINK_ReadReg(XPSR)  returns 0x61000000 (0000ms, 0471ms total)
T487C 006:422 JLINK_Step() -- Read from C cache (2 bytes @ 0x0800197A) -- Simulated  returns 0x00 (0000ms, 0471ms total)
T487C 006:422 JLINK_ReadReg(R15 (PC))  returns 0x0800197C (0000ms, 0471ms total)
T487C 006:422 JLINK_ReadReg(XPSR)  returns 0x21000000 (0000ms, 0471ms total)
T487C 006:422 JLINK_Step() -- Read from C cache (2 bytes @ 0x0800197C) -- Simulated  returns 0x00 (0000ms, 0471ms total)
T487C 006:422 JLINK_ReadReg(R15 (PC))  returns 0x0800197E (0000ms, 0471ms total)
T487C 006:422 JLINK_ReadReg(XPSR)  returns 0x21000000 (0000ms, 0471ms total)
T487C 006:422 JLINK_Step() -- Read from C cache (2 bytes @ 0x0800197E) -- Simulated  returns 0x00 (0000ms, 0471ms total)
T487C 006:422 JLINK_ReadReg(R15 (PC))  returns 0x08001980 (0000ms, 0471ms total)
T487C 006:422 JLINK_ReadReg(XPSR)  returns 0x21000000 (0000ms, 0471ms total)
T487C 006:422 JLINK_Step() -- CPU_ReadMem(64 bytes @ 0x08001980) -- Updating C cache (64 bytes @ 0x08001980) -- Read from C cache (2 bytes @ 0x08001980) -- CPU_WriteMem(4 bytes @ 0x200006C8) -- Simulated  returns 0x00 (0001ms, 0472ms total)
T487C 006:423 JLINK_ReadReg(R15 (PC))  returns 0x08001982 (0000ms, 0472ms total)
T487C 006:423 JLINK_ReadReg(XPSR)  returns 0x21000000 (0000ms, 0472ms total)
T487C 006:423 JLINK_SetBPEx(Addr = 0x08001986, Type = 0xFFFFFFF2)  returns 0x00000007 (0000ms, 0472ms total)
T487C 006:423 JLINK_SetBPEx(Addr = 0x08001A14, Type = 0xFFFFFFF2)  returns 0x00000008 (0000ms, 0472ms total)
T487C 006:423 JLINK_SetBPEx(Addr = 0x08001A0C, Type = 0xFFFFFFF2)  returns 0x00000009 (0000ms, 0472ms total)
T487C 006:423 JLINK_Go() -- CPU_ReadMem(4 bytes @ 0xE0001000) -- CPU_WriteMem(4 bytes @ 0xE0002008) -- CPU_WriteMem(4 bytes @ 0xE0001004) (0002ms, 0474ms total)
T487C 006:526 JLINK_IsHalted()  returns TRUE (0001ms, 0475ms total)
T487C 006:527 JLINK_Halt()  returns 0x00 (0000ms, 0474ms total)
T487C 006:527 JLINK_IsHalted()  returns TRUE (0000ms, 0474ms total)
T487C 006:527 JLINK_IsHalted()  returns TRUE (0000ms, 0474ms total)
T487C 006:527 JLINK_IsHalted()  returns TRUE (0000ms, 0474ms total)
T487C 006:527 JLINK_ReadReg(R15 (PC))  returns 0x08001986 (0001ms, 0475ms total)
T487C 006:528 JLINK_ReadReg(XPSR)  returns 0x21000000 (0000ms, 0475ms total)
T487C 006:528 JLINK_ClrBPEx(BPHandle = 0x00000007)  returns 0x00 (0000ms, 0475ms total)
T487C 006:528 JLINK_ClrBPEx(BPHandle = 0x00000008)  returns 0x00 (0000ms, 0475ms total)
T487C 006:528 JLINK_ClrBPEx(BPHandle = 0x00000009)  returns 0x00 (0000ms, 0475ms total)
T487C 006:528 JLINK_ReadMemU32(0xE000ED30, 0x0001 Items, ...) -- CPU_ReadMem(4 bytes @ 0xE000ED30) - Data: 02 00 00 00  returns 1 (0000ms, 0475ms total)
T487C 006:528 JLINK_ReadMemU32(0xE0001028, 0x0001 Items, ...) -- CPU_ReadMem(4 bytes @ 0xE0001028) - Data: 00 00 00 00  returns 1 (0000ms, 0475ms total)
T487C 006:528 JLINK_ReadMemU32(0xE0001038, 0x0001 Items, ...) -- CPU_ReadMem(4 bytes @ 0xE0001038) - Data: 00 02 00 00  returns 1 (0001ms, 0476ms total)
T487C 006:529 JLINK_ReadMemU32(0xE0001048, 0x0001 Items, ...) -- CPU_ReadMem(4 bytes @ 0xE0001048) - Data: 00 00 00 00  returns 1 (0000ms, 0476ms total)
T487C 006:529 JLINK_ReadMemU32(0xE0001058, 0x0001 Items, ...) -- CPU_ReadMem(4 bytes @ 0xE0001058) - Data: 00 00 00 00  returns 1 (0000ms, 0476ms total)
T487C 006:529 JLINK_Step() -- CPU_ReadMem(64 bytes @ 0x08001980) -- Updating C cache (64 bytes @ 0x08001980) -- Read from C cache (2 bytes @ 0x08001986) -- CPU_ReadMem(4 bytes @ 0xE0001004) -- Read from C cache (2 bytes @ 0x08001988) -- Not simulated -- CPU_WriteMem(4 bytes @ 0xE0002008) -- CPU_WriteMem(4 bytes @ 0xE000200C) -- CPU_WriteMem(4 bytes @ 0xE0002010)  returns 0x00 (0004ms, 0480ms total)
T487C 006:533 JLINK_ReadReg(R15 (PC))  returns 0x0800198A (0000ms, 0480ms total)
T487C 006:533 JLINK_ReadReg(XPSR)  returns 0x21000000 (0000ms, 0480ms total)
T487C 006:533 JLINK_Step() -- CPU_ReadMem(64 bytes @ 0x08001980) -- Updating C cache (64 bytes @ 0x08001980) -- Read from C cache (2 bytes @ 0x0800198A) -- CPU_ReadMem(4 bytes @ 0xE0001004) -- Simulated  returns 0x00 (0001ms, 0481ms total)
T487C 006:534 JLINK_ReadReg(R15 (PC))  returns 0x0800198C (0000ms, 0481ms total)
T487C 006:534 JLINK_ReadReg(XPSR)  returns 0x21000000 (0000ms, 0481ms total)
T487C 006:534 JLINK_Step() -- Read from C cache (2 bytes @ 0x0800198C) -- Read from C cache (2 bytes @ 0x0800198E) -- Not simulated -- CPU_WriteMem(4 bytes @ 0xE0001004)  returns 0x00 (0003ms, 0484ms total)
T487C 006:537 JLINK_ReadReg(R15 (PC))  returns 0x08001990 (0000ms, 0484ms total)
T487C 006:537 JLINK_ReadReg(XPSR)  returns 0x21000000 (0000ms, 0484ms total)
T487C 006:537 JLINK_Step() -- CPU_ReadMem(64 bytes @ 0x08001980) -- Updating C cache (64 bytes @ 0x08001980) -- Read from C cache (2 bytes @ 0x08001990) -- CPU_ReadMem(4 bytes @ 0xE0001004) -- Read from C cache (2 bytes @ 0x08001992) -- Not simulated  returns 0x00 (0004ms, 0488ms total)
T487C 006:541 JLINK_ReadReg(R15 (PC))  returns 0x08001994 (0000ms, 0488ms total)
T487C 006:541 JLINK_ReadReg(XPSR)  returns 0x21000000 (0000ms, 0488ms total)
T487C 006:541 JLINK_Step() -- CPU_ReadMem(64 bytes @ 0x08001980) -- Updating C cache (64 bytes @ 0x08001980) -- Read from C cache (2 bytes @ 0x08001994) -- CPU_ReadMem(4 bytes @ 0xE0001004) -- Read from C cache (2 bytes @ 0x08001996) -- Not simulated  returns 0x00 (0003ms, 0491ms total)
T487C 006:544 JLINK_ReadReg(R15 (PC))  returns 0x08001998 (0000ms, 0491ms total)
T487C 006:544 JLINK_ReadReg(XPSR)  returns 0x21000000 (0000ms, 0491ms total)
T487C 006:544 JLINK_Step() -- CPU_ReadMem(64 bytes @ 0x08001980) -- Updating C cache (64 bytes @ 0x08001980) -- Read from C cache (2 bytes @ 0x08001998) -- CPU_ReadMem(4 bytes @ 0xE0001004) -- Read from C cache (2 bytes @ 0x0800199A) -- Not simulated  returns 0x00 (0003ms, 0494ms total)
T487C 006:547 JLINK_ReadReg(R15 (PC))  returns 0x0800199C (0000ms, 0494ms total)
T487C 006:547 JLINK_ReadReg(XPSR)  returns 0x21000000 (0000ms, 0494ms total)
T487C 006:547 JLINK_SetBPEx(Addr = 0x080019A0, Type = 0xFFFFFFF2)  returns 0x0000000A (0000ms, 0494ms total)
T487C 006:547 JLINK_SetBPEx(Addr = 0x08001A14, Type = 0xFFFFFFF2)  returns 0x0000000B (0000ms, 0494ms total)
T487C 006:547 JLINK_SetBPEx(Addr = 0x08001A0C, Type = 0xFFFFFFF2)  returns 0x0000000C (0000ms, 0494ms total)
T487C 006:547 JLINK_Go() -- CPU_ReadMem(4 bytes @ 0xE0001000) -- CPU_WriteMem(4 bytes @ 0xE0002008) -- CPU_WriteMem(4 bytes @ 0xE000200C) -- CPU_WriteMem(4 bytes @ 0xE0002010) (0002ms, 0496ms total)
T487C 006:650 JLINK_IsHalted()  returns TRUE (0001ms, 0497ms total)
T487C 006:651 JLINK_Halt()  returns 0x00 (0000ms, 0496ms total)
T487C 006:651 JLINK_IsHalted()  returns TRUE (0000ms, 0496ms total)
T487C 006:651 JLINK_IsHalted()  returns TRUE (0000ms, 0496ms total)
T487C 006:651 JLINK_IsHalted()  returns TRUE (0000ms, 0496ms total)
T487C 006:652 JLINK_ReadReg(R15 (PC))  returns 0x080019A0 (0000ms, 0496ms total)
T487C 006:652 JLINK_ReadReg(XPSR)  returns 0x21000000 (0000ms, 0496ms total)
T487C 006:652 JLINK_ClrBPEx(BPHandle = 0x0000000A)  returns 0x00 (0000ms, 0496ms total)
T487C 006:652 JLINK_ClrBPEx(BPHandle = 0x0000000B)  returns 0x00 (0000ms, 0496ms total)
T487C 006:652 JLINK_ClrBPEx(BPHandle = 0x0000000C)  returns 0x00 (0000ms, 0496ms total)
T487C 006:652 JLINK_ReadMemU32(0xE000ED30, 0x0001 Items, ...) -- CPU_ReadMem(4 bytes @ 0xE000ED30) - Data: 02 00 00 00  returns 1 (0000ms, 0496ms total)
T487C 006:652 JLINK_ReadMemU32(0xE0001028, 0x0001 Items, ...) -- CPU_ReadMem(4 bytes @ 0xE0001028) - Data: 00 00 00 00  returns 1 (0000ms, 0496ms total)
T487C 006:652 JLINK_ReadMemU32(0xE0001038, 0x0001 Items, ...) -- CPU_ReadMem(4 bytes @ 0xE0001038) - Data: 00 02 00 00  returns 1 (0001ms, 0497ms total)
T487C 006:653 JLINK_ReadMemU32(0xE0001048, 0x0001 Items, ...) -- CPU_ReadMem(4 bytes @ 0xE0001048) - Data: 00 00 00 00  returns 1 (0000ms, 0497ms total)
T487C 006:653 JLINK_ReadMemU32(0xE0001058, 0x0001 Items, ...) -- CPU_ReadMem(4 bytes @ 0xE0001058) - Data: 00 00 00 00  returns 1 (0000ms, 0497ms total)
T487C 006:653 JLINK_Step() -- CPU_ReadMem(64 bytes @ 0x08001980) -- Updating C cache (64 bytes @ 0x08001980) -- Read from C cache (2 bytes @ 0x080019A0) -- CPU_ReadMem(4 bytes @ 0xE0001004) -- Simulated  returns 0x00 (0002ms, 0499ms total)
T487C 006:655 JLINK_ReadReg(R15 (PC))  returns 0x080019A2 (0000ms, 0499ms total)
T487C 006:655 JLINK_ReadReg(XPSR)  returns 0x21000000 (0000ms, 0499ms total)
T487C 006:655 JLINK_ReadReg(R0)  returns 0x20000100 (0000ms, 0499ms total)
T487C 006:655 JLINK_ReadReg(R1)  returns 0x00000028 (0000ms, 0499ms total)
T487C 006:655 JLINK_ReadReg(R2)  returns 0x20000014 (0000ms, 0499ms total)
T487C 006:655 JLINK_ReadReg(R3)  returns 0x20000124 (0000ms, 0499ms total)
T487C 006:655 JLINK_ReadReg(R4)  returns 0x08001B34 (0000ms, 0499ms total)
T487C 006:655 JLINK_ReadReg(R5)  returns 0x2000001C (0000ms, 0499ms total)
T487C 006:655 JLINK_ReadReg(R6)  returns 0x00000000 (0000ms, 0499ms total)
T487C 006:655 JLINK_ReadReg(R7)  returns 0x00000000 (0000ms, 0499ms total)
T487C 006:655 JLINK_ReadReg(R8)  returns 0x200000E8 (0000ms, 0499ms total)
T487C 006:655 JLINK_ReadReg(R9)  returns 0x20000100 (0000ms, 0499ms total)
T487C 006:655 JLINK_ReadReg(R10)  returns 0x00000000 (0000ms, 0499ms total)
T487C 006:655 JLINK_ReadReg(R11)  returns 0x00000000 (0000ms, 0499ms total)
T487C 006:655 JLINK_ReadReg(R12)  returns 0x00000000 (0000ms, 0499ms total)
T487C 006:655 JLINK_ReadReg(R13 (SP))  returns 0x200006C8 (0000ms, 0499ms total)
T487C 006:655 JLINK_ReadReg(R14)  returns 0x0800111D (0000ms, 0499ms total)
T487C 006:655 JLINK_ReadReg(R15 (PC))  returns 0x080019A2 (0000ms, 0499ms total)
T487C 006:655 JLINK_ReadReg(XPSR)  returns 0x21000000 (0000ms, 0499ms total)
T487C 006:655 JLINK_ReadReg(MSP)  returns 0x200006C8 (0000ms, 0499ms total)
T487C 006:655 JLINK_ReadReg(PSP)  returns 0x00000000 (0000ms, 0499ms total)
T487C 006:655 JLINK_ReadReg(CFBP)  returns 0x04000000 (0000ms, 0499ms total)
T487C 006:655 JLINK_ReadReg(FPSCR)  returns 0x00000000 (0003ms, 0502ms total)
T487C 006:658 JLINK_ReadReg(FPS0)  returns 0x00000000 (0000ms, 0502ms total)
T487C 006:658 JLINK_ReadReg(FPS1)  returns 0x3F4CCCCD (0000ms, 0502ms total)
T487C 006:658 JLINK_ReadReg(FPS2)  returns 0x3C23D70A (0000ms, 0502ms total)
T487C 006:658 JLINK_ReadReg(FPS3)  returns 0x3F4CCCCD (0000ms, 0502ms total)
T487C 006:658 JLINK_ReadReg(FPS4)  returns 0x40400000 (0000ms, 0502ms total)
T487C 006:658 JLINK_ReadReg(FPS5)  returns 0x00000000 (0000ms, 0502ms total)
T487C 006:658 JLINK_ReadReg(FPS6)  returns 0x00000000 (0000ms, 0502ms total)
T487C 006:658 JLINK_ReadReg(FPS7)  returns 0x00000000 (0000ms, 0502ms total)
T487C 006:658 JLINK_ReadReg(FPS8)  returns 0x00000000 (0000ms, 0502ms total)
T487C 006:658 JLINK_ReadReg(FPS9)  returns 0x00000000 (0000ms, 0502ms total)
T487C 006:658 JLINK_ReadReg(FPS10)  returns 0x00000000 (0000ms, 0502ms total)
T487C 006:658 JLINK_ReadReg(FPS11)  returns 0x00000000 (0000ms, 0502ms total)
T487C 006:658 JLINK_ReadReg(FPS12)  returns 0x00000000 (0000ms, 0502ms total)
T487C 006:658 JLINK_ReadReg(FPS13)  returns 0x00000000 (0000ms, 0502ms total)
T487C 006:658 JLINK_ReadReg(FPS14)  returns 0x00000000 (0000ms, 0502ms total)
T487C 006:658 JLINK_ReadReg(FPS15)  returns 0x00000000 (0000ms, 0502ms total)
T487C 006:658 JLINK_ReadReg(FPS16)  returns 0x00000000 (0000ms, 0502ms total)
T487C 006:658 JLINK_ReadReg(FPS17)  returns 0x00000000 (0000ms, 0502ms total)
T487C 006:658 JLINK_ReadReg(FPS18)  returns 0x00000000 (0000ms, 0502ms total)
T487C 006:658 JLINK_ReadReg(FPS19)  returns 0x00000000 (0000ms, 0502ms total)
T487C 006:658 JLINK_ReadReg(FPS20)  returns 0x00000000 (0000ms, 0502ms total)
T487C 006:658 JLINK_ReadReg(FPS21)  returns 0x00000000 (0000ms, 0502ms total)
T487C 006:658 JLINK_ReadReg(FPS22)  returns 0x00000000 (0001ms, 0503ms total)
T487C 006:659 JLINK_ReadReg(FPS23)  returns 0x00000000 (0000ms, 0503ms total)
T487C 006:659 JLINK_ReadReg(FPS24)  returns 0x00000000 (0000ms, 0503ms total)
T487C 006:659 JLINK_ReadReg(FPS25)  returns 0x00000000 (0000ms, 0503ms total)
T487C 006:659 JLINK_ReadReg(FPS26)  returns 0x00000000 (0000ms, 0503ms total)
T487C 006:659 JLINK_ReadReg(FPS27)  returns 0x00000000 (0000ms, 0503ms total)
T487C 006:659 JLINK_ReadReg(FPS28)  returns 0x00000000 (0000ms, 0503ms total)
T487C 006:659 JLINK_ReadReg(FPS29)  returns 0x00000000 (0000ms, 0503ms total)
T487C 006:659 JLINK_ReadReg(FPS30)  returns 0x00000000 (0000ms, 0503ms total)
T487C 006:659 JLINK_ReadReg(FPS31)  returns 0x00000000 (0000ms, 0503ms total)
T4B60 006:659 JLINK_ReadMem (0x200006CC, 0x000F Bytes, ...) -- CPU_ReadMem(64 bytes @ 0x200006C0) -- Updating C cache (64 bytes @ 0x200006C0) -- Read from C cache (15 bytes @ 0x200006CC) - Data: 00 00 00 00 00 00 00 00 00 00 00 00 00 00 00  returns 0x00 (0001ms, 0504ms total)
T4B60 006:660 JLINK_ReadMem (0x00000000, 0x0004 Bytes, ...) -- CPU_ReadMem(4 bytes @ 0x40023844) -- CPU_ReadMem(4 bytes @ 0x40013800) -- CPU_ReadMem(64 bytes @ 0x08000000) -- Updating C cache (64 bytes @ 0x08000000) -- Read from C cache (4 bytes @ 0x08000000) - Data: E0 06 00 20  returns 0x00 (0002ms, 0506ms total)
T4B60 006:662 JLINK_ReadMemU32(0xE0001004, 0x0001 Items, ...) - Data: B3 0C 00 00  returns 1 (0000ms, 0506ms total)
T4B60 006:662 JLINK_ReadMem (0x08001986, 0x0002 Bytes, ...) -- Read from C cache (2 bytes @ 0x08001986) - Data: DF ED  returns 0x00 (0000ms, 0506ms total)
T4B60 006:662 JLINK_ReadMem (0x08001988, 0x003C Bytes, ...) -- CPU_ReadMem(64 bytes @ 0x080019C0) -- Updating C cache (64 bytes @ 0x080019C0) -- Read from C cache (60 bytes @ 0x08001988) - Data: 38 0A 80 46 B0 EE 08 2A F0 EE 60 1A 9F ED 35 1A ...  returns 0x00 (0001ms, 0507ms total)
T487C 008:216 JLINK_SetBPEx(Addr = 0x080019A6, Type = 0xFFFFFFF2)  returns 0x0000000D (0000ms, 0507ms total)
T487C 008:216 JLINK_SetBPEx(Addr = 0x08001A14, Type = 0xFFFFFFF2)  returns 0x0000000E (0000ms, 0507ms total)
T487C 008:216 JLINK_SetBPEx(Addr = 0x08001A0C, Type = 0xFFFFFFF2)  returns 0x0000000F (0000ms, 0507ms total)
T487C 008:216 JLINK_Go() -- CPU_ReadMem(4 bytes @ 0xE0001000) -- CPU_WriteMem(4 bytes @ 0xE0002008) -- CPU_WriteMem(4 bytes @ 0xE0001004) (0002ms, 0509ms total)
T487C 008:319 JLINK_IsHalted()  returns TRUE (0001ms, 0510ms total)
T487C 008:320 JLINK_Halt()  returns 0x00 (0000ms, 0509ms total)
T487C 008:320 JLINK_IsHalted()  returns TRUE (0000ms, 0509ms total)
T487C 008:320 JLINK_IsHalted()  returns TRUE (0000ms, 0509ms total)
T487C 008:320 JLINK_IsHalted()  returns TRUE (0000ms, 0509ms total)
T487C 008:320 JLINK_ReadReg(R15 (PC))  returns 0x080019A6 (0000ms, 0509ms total)
T487C 008:321 JLINK_ReadReg(XPSR)  returns 0x61000000 (0000ms, 0509ms total)
T487C 008:321 JLINK_ClrBPEx(BPHandle = 0x0000000D)  returns 0x00 (0000ms, 0509ms total)
T487C 008:321 JLINK_ClrBPEx(BPHandle = 0x0000000E)  returns 0x00 (0000ms, 0509ms total)
T487C 008:321 JLINK_ClrBPEx(BPHandle = 0x0000000F)  returns 0x00 (0000ms, 0509ms total)
T487C 008:321 JLINK_ReadMemU32(0xE000ED30, 0x0001 Items, ...) -- CPU_ReadMem(4 bytes @ 0xE000ED30) - Data: 02 00 00 00  returns 1 (0000ms, 0509ms total)
T487C 008:321 JLINK_ReadMemU32(0xE0001028, 0x0001 Items, ...) -- CPU_ReadMem(4 bytes @ 0xE0001028) - Data: 00 00 00 00  returns 1 (0000ms, 0509ms total)
T487C 008:321 JLINK_ReadMemU32(0xE0001038, 0x0001 Items, ...) -- CPU_ReadMem(4 bytes @ 0xE0001038) - Data: 00 02 00 00  returns 1 (0001ms, 0510ms total)
T487C 008:322 JLINK_ReadMemU32(0xE0001048, 0x0001 Items, ...) -- CPU_ReadMem(4 bytes @ 0xE0001048) - Data: 00 00 00 00  returns 1 (0000ms, 0510ms total)
T487C 008:322 JLINK_ReadMemU32(0xE0001058, 0x0001 Items, ...) -- CPU_ReadMem(4 bytes @ 0xE0001058) - Data: 00 00 00 00  returns 1 (0000ms, 0510ms total)
T487C 008:322 JLINK_ReadReg(R0)  returns 0x00000000 (0000ms, 0510ms total)
T487C 008:322 JLINK_ReadReg(R1)  returns 0x00000000 (0000ms, 0510ms total)
T487C 008:322 JLINK_ReadReg(R2)  returns 0x00000000 (0000ms, 0510ms total)
T487C 008:322 JLINK_ReadReg(R3)  returns 0x00000000 (0000ms, 0510ms total)
T487C 008:322 JLINK_ReadReg(R4)  returns 0x08001B34 (0000ms, 0510ms total)
T487C 008:322 JLINK_ReadReg(R5)  returns 0x2000001C (0001ms, 0511ms total)
T487C 008:323 JLINK_ReadReg(R6)  returns 0x00000000 (0000ms, 0511ms total)
T487C 008:323 JLINK_ReadReg(R7)  returns 0x00000000 (0000ms, 0511ms total)
T487C 008:323 JLINK_ReadReg(R8)  returns 0x200000E8 (0000ms, 0511ms total)
T487C 008:323 JLINK_ReadReg(R9)  returns 0x20000100 (0000ms, 0511ms total)
T487C 008:323 JLINK_ReadReg(R10)  returns 0x00000000 (0000ms, 0511ms total)
T487C 008:323 JLINK_ReadReg(R11)  returns 0x00000000 (0000ms, 0511ms total)
T487C 008:323 JLINK_ReadReg(R12)  returns 0x00000000 (0000ms, 0511ms total)
T487C 008:323 JLINK_ReadReg(R13 (SP))  returns 0x200006C8 (0000ms, 0511ms total)
T487C 008:323 JLINK_ReadReg(R14)  returns 0x08000879 (0000ms, 0511ms total)
T487C 008:323 JLINK_ReadReg(R15 (PC))  returns 0x080019A6 (0000ms, 0511ms total)
T487C 008:323 JLINK_ReadReg(XPSR)  returns 0x61000000 (0000ms, 0511ms total)
T487C 008:323 JLINK_ReadReg(MSP)  returns 0x200006C8 (0000ms, 0511ms total)
T487C 008:323 JLINK_ReadReg(PSP)  returns 0x00000000 (0000ms, 0511ms total)
T487C 008:323 JLINK_ReadReg(CFBP)  returns 0x04000000 (0000ms, 0511ms total)
T487C 008:323 JLINK_ReadReg(FPSCR)  returns 0x00000000 (0003ms, 0514ms total)
T487C 008:326 JLINK_ReadReg(FPS0)  returns 0x00000000 (0000ms, 0514ms total)
T487C 008:326 JLINK_ReadReg(FPS1)  returns 0x3F4CCCCD (0000ms, 0514ms total)
T487C 008:326 JLINK_ReadReg(FPS2)  returns 0x3C23D70A (0000ms, 0514ms total)
T487C 008:326 JLINK_ReadReg(FPS3)  returns 0x3F4CCCCD (0000ms, 0514ms total)
T487C 008:326 JLINK_ReadReg(FPS4)  returns 0x40400000 (0000ms, 0514ms total)
T487C 008:326 JLINK_ReadReg(FPS5)  returns 0x00000000 (0000ms, 0514ms total)
T487C 008:326 JLINK_ReadReg(FPS6)  returns 0x00000000 (0000ms, 0514ms total)
T487C 008:326 JLINK_ReadReg(FPS7)  returns 0x00000000 (0000ms, 0514ms total)
T487C 008:326 JLINK_ReadReg(FPS8)  returns 0x00000000 (0000ms, 0514ms total)
T487C 008:326 JLINK_ReadReg(FPS9)  returns 0x00000000 (0000ms, 0514ms total)
T487C 008:326 JLINK_ReadReg(FPS10)  returns 0x00000000 (0000ms, 0514ms total)
T487C 008:326 JLINK_ReadReg(FPS11)  returns 0x00000000 (0000ms, 0514ms total)
T487C 008:326 JLINK_ReadReg(FPS12)  returns 0x00000000 (0000ms, 0514ms total)
T487C 008:326 JLINK_ReadReg(FPS13)  returns 0x00000000 (0000ms, 0514ms total)
T487C 008:326 JLINK_ReadReg(FPS14)  returns 0x00000000 (0000ms, 0514ms total)
T487C 008:326 JLINK_ReadReg(FPS15)  returns 0x00000000 (0000ms, 0514ms total)
T487C 008:326 JLINK_ReadReg(FPS16)  returns 0x00000000 (0000ms, 0514ms total)
T487C 008:326 JLINK_ReadReg(FPS17)  returns 0x00000000 (0000ms, 0514ms total)
T487C 008:326 JLINK_ReadReg(FPS18)  returns 0x00000000 (0000ms, 0514ms total)
T487C 008:326 JLINK_ReadReg(FPS19)  returns 0x00000000 (0000ms, 0514ms total)
T487C 008:326 JLINK_ReadReg(FPS20)  returns 0x00000000 (0000ms, 0514ms total)
T487C 008:326 JLINK_ReadReg(FPS21)  returns 0x00000000 (0000ms, 0514ms total)
T487C 008:326 JLINK_ReadReg(FPS22)  returns 0x00000000 (0000ms, 0514ms total)
T487C 008:326 JLINK_ReadReg(FPS23)  returns 0x00000000 (0000ms, 0514ms total)
T487C 008:326 JLINK_ReadReg(FPS24)  returns 0x00000000 (0000ms, 0514ms total)
T487C 008:326 JLINK_ReadReg(FPS25)  returns 0x00000000 (0000ms, 0514ms total)
T487C 008:326 JLINK_ReadReg(FPS26)  returns 0x00000000 (0000ms, 0514ms total)
T487C 008:326 JLINK_ReadReg(FPS27)  returns 0x00000000 (0000ms, 0514ms total)
T487C 008:326 JLINK_ReadReg(FPS28)  returns 0x00000000 (0000ms, 0514ms total)
T487C 008:326 JLINK_ReadReg(FPS29)  returns 0x00000000 (0000ms, 0514ms total)
T487C 008:326 JLINK_ReadReg(FPS30)  returns 0x00000000 (0001ms, 0515ms total)
T487C 008:327 JLINK_ReadReg(FPS31)  returns 0x00000000 (0000ms, 0515ms total)
T4B60 008:327 JLINK_ReadMem (0x200006CC, 0x000F Bytes, ...) -- CPU_ReadMem(64 bytes @ 0x200006C0) -- Updating C cache (64 bytes @ 0x200006C0) -- Read from C cache (15 bytes @ 0x200006CC) - Data: 00 00 00 00 00 00 00 00 00 00 00 00 00 00 00  returns 0x00 (0000ms, 0515ms total)
T4B60 008:328 JLINK_ReadMem (0x00000000, 0x0004 Bytes, ...) -- CPU_ReadMem(4 bytes @ 0x40023844) -- CPU_ReadMem(4 bytes @ 0x40013800) -- CPU_ReadMem(64 bytes @ 0x08000000) -- Updating C cache (64 bytes @ 0x08000000) -- Read from C cache (4 bytes @ 0x08000000) - Data: E0 06 00 20  returns 0x00 (0001ms, 0516ms total)
T4B60 008:329 JLINK_ReadMemU32(0xE0001004, 0x0001 Items, ...) -- CPU_ReadMem(4 bytes @ 0xE0001004) - Data: 19 20 00 00  returns 1 (0001ms, 0517ms total)
T4B60 008:333 JLINK_ReadMem (0x08001994, 0x003C Bytes, ...) -- CPU_ReadMem(128 bytes @ 0x08001980) -- Updating C cache (128 bytes @ 0x08001980) -- Read from C cache (60 bytes @ 0x08001994) - Data: 9F ED 35 1A 9F ED 35 0A FF F7 AE FB 81 46 FF F7 ...  returns 0x00 (0001ms, 0518ms total)
T487C 008:821 JLINK_SetBPEx(Addr = 0x080019AA, Type = 0xFFFFFFF2)  returns 0x00000010 (0000ms, 0518ms total)
T487C 008:821 JLINK_SetBPEx(Addr = 0x08001A14, Type = 0xFFFFFFF2)  returns 0x00000011 (0000ms, 0518ms total)
T487C 008:821 JLINK_SetBPEx(Addr = 0x08001A0C, Type = 0xFFFFFFF2)  returns 0x00000012 (0000ms, 0518ms total)
T487C 008:821 JLINK_Go() -- CPU_ReadMem(4 bytes @ 0xE0001000) -- CPU_WriteMem(4 bytes @ 0xE0002008) (0001ms, 0519ms total)
T487C 008:923 JLINK_IsHalted()  returns TRUE (0001ms, 0520ms total)
T487C 008:924 JLINK_Halt()  returns 0x00 (0000ms, 0519ms total)
T487C 008:924 JLINK_IsHalted()  returns TRUE (0000ms, 0519ms total)
T487C 008:924 JLINK_IsHalted()  returns TRUE (0000ms, 0519ms total)
T487C 008:925 JLINK_IsHalted()  returns TRUE (0000ms, 0519ms total)
T487C 008:925 JLINK_ReadReg(R15 (PC))  returns 0x080019AA (0000ms, 0519ms total)
T487C 008:925 JLINK_ReadReg(XPSR)  returns 0x61000000 (0000ms, 0519ms total)
T487C 008:925 JLINK_ClrBPEx(BPHandle = 0x00000010)  returns 0x00 (0000ms, 0519ms total)
T487C 008:925 JLINK_ClrBPEx(BPHandle = 0x00000011)  returns 0x00 (0000ms, 0519ms total)
T487C 008:925 JLINK_ClrBPEx(BPHandle = 0x00000012)  returns 0x00 (0000ms, 0519ms total)
T487C 008:925 JLINK_ReadMemU32(0xE000ED30, 0x0001 Items, ...) -- CPU_ReadMem(4 bytes @ 0xE000ED30) - Data: 02 00 00 00  returns 1 (0000ms, 0519ms total)
T487C 008:925 JLINK_ReadMemU32(0xE0001028, 0x0001 Items, ...) -- CPU_ReadMem(4 bytes @ 0xE0001028) - Data: 00 00 00 00  returns 1 (0000ms, 0519ms total)
T487C 008:925 JLINK_ReadMemU32(0xE0001038, 0x0001 Items, ...) -- CPU_ReadMem(4 bytes @ 0xE0001038) - Data: 00 02 00 00  returns 1 (0001ms, 0520ms total)
T487C 008:926 JLINK_ReadMemU32(0xE0001048, 0x0001 Items, ...) -- CPU_ReadMem(4 bytes @ 0xE0001048) - Data: 00 00 00 00  returns 1 (0000ms, 0520ms total)
T487C 008:926 JLINK_ReadMemU32(0xE0001058, 0x0001 Items, ...) -- CPU_ReadMem(4 bytes @ 0xE0001058) - Data: 00 00 00 00  returns 1 (0000ms, 0520ms total)
T487C 008:926 JLINK_SetBPEx(Addr = 0x080019CC, Type = 0xFFFFFFF2)  returns 0x00000013 (0000ms, 0520ms total)
T487C 008:926 JLINK_SetBPEx(Addr = 0x08001A14, Type = 0xFFFFFFF2)  returns 0x00000014 (0000ms, 0520ms total)
